Frequency (GHz)	DB(|S(2,1)|) : t_network_lpf	DB(|S(2,1)|) : EM_Extract_Doc
0	-0.00453816	-0.00470379
0.01	-0.00828972	-0.00499917
0.02	-0.0119067	-0.00588469
0.03	-0.0158461	-0.00735833
0.04	-0.0200759	-0.0094167
0.05	-0.0245405	-0.012055
0.06	-0.0292048	-0.0152671
0.07	-0.034055	-0.0190455
0.08	-0.039091	-0.0233814
0.09	-0.0443188	-0.0282646
0.1	-0.049746	-0.0336838
0.11	-0.055379	-0.0396265
0.12	-0.0612225	-0.0460789
0.13	-0.0672789	-0.0530261
0.14	-0.0735484	-0.0604522
0.15	-0.0800296	-0.0683403
0.16	-0.0867197	-0.0766726
0.17	-0.0936143	-0.0854301
0.18	-0.100708	-0.0945933
0.19	-0.107995	-0.104142
0.2	-0.115469	-0.114054
0.21	-0.123121	-0.124309
0.22	-0.130943	-0.134885
0.23	-0.138928	-0.145757
0.24	-0.147066	-0.156903
0.25	-0.155348	-0.1683
0.26	-0.163764	-0.179923
0.27	-0.172305	-0.191749
0.28	-0.18096	-0.203752
0.29	-0.189719	-0.215909
0.3	-0.198571	-0.228195
0.31	-0.207506	-0.240585
0.32	-0.216512	-0.253055
0.33	-0.225579	-0.265581
0.34	-0.234696	-0.278138
0.35	-0.24385	-0.290703
0.36	-0.253032	-0.303253
0.37	-0.262229	-0.315764
0.38	-0.27143	-0.328213
0.39	-0.280625	-0.340578
0.4	-0.289801	-0.352837
0.41	-0.298947	-0.364969
0.42	-0.308052	-0.376953
0.43	-0.317106	-0.388768
0.44	-0.326097	-0.400396
0.45	-0.335013	-0.411817
0.46	-0.343845	-0.423014
0.47	-0.352582	-0.433968
0.48	-0.361213	-0.444662
0.49	-0.369728	-0.455082
0.5	-0.378117	-0.465211
0.51	-0.38637	-0.475036
0.52	-0.394478	-0.484541
0.53	-0.402431	-0.493716
0.54	-0.41022	-0.502547
0.55	-0.417837	-0.511024
0.56	-0.425272	-0.519137
0.57	-0.432517	-0.526875
0.58	-0.439566	-0.53423
0.59	-0.446409	-0.541195
0.6	-0.45304	-0.547763
0.61	-0.459452	-0.553928
0.62	-0.465638	-0.559684
0.63	-0.471592	-0.565049
0.64	-0.477309	-0.570037
0.65	-0.482782	-0.574643
0.66	-0.488007	-0.578864
0.67	-0.492978	-0.582694
0.68	-0.497693	-0.586129
0.69	-0.502146	-0.589166
0.7	-0.506335	-0.591802
0.71	-0.510256	-0.594033
0.72	-0.513906	-0.595859
0.73	-0.517285	-0.597276
0.74	-0.520389	-0.598286
0.75	-0.523217	-0.598887
0.76	-0.525769	-0.599082
0.77	-0.528045	-0.598872
0.78	-0.530043	-0.598262
0.79	-0.531765	-0.597254
0.8	-0.533212	-0.595856
0.81	-0.534385	-0.594074
0.82	-0.535286	-0.591916
0.83	-0.535917	-0.589391
0.84	-0.536281	-0.586512
0.85	-0.536381	-0.58329
0.86	-0.536221	-0.579739
0.87	-0.535805	-0.575874
0.88	-0.535137	-0.571711
0.89	-0.534223	-0.567268
0.9	-0.533068	-0.562563
0.91	-0.531679	-0.557617
0.92	-0.53006	-0.552449
0.93	-0.52822	-0.547083
0.94	-0.526165	-0.541518
0.95	-0.523903	-0.535762
0.96	-0.521442	-0.529846
0.97	-0.518791	-0.523802
0.98	-0.515959	-0.517665
0.99	-0.512954	-0.511467
1	-0.509786	-0.505243
1.01	-0.506466	-0.499024
1.02	-0.503003	-0.492845
1.03	-0.499409	-0.486737
1.04	-0.495694	-0.48073
1.05	-0.49187	-0.474855
1.06	-0.487948	-0.469138
1.07	-0.48394	-0.463606
1.08	-0.479859	-0.458283
1.09	-0.475716	-0.453191
1.1	-0.471525	-0.44835
1.11	-0.467297	-0.443777
1.12	-0.463047	-0.439488
1.13	-0.458786	-0.435494
1.14	-0.454529	-0.431808
1.15	-0.450288	-0.428437
1.16	-0.446077	-0.425387
1.17	-0.44191	-0.422662
1.18	-0.437799	-0.420264
1.19	-0.433758	-0.418193
1.2	-0.429801	-0.416448
1.21	-0.42594	-0.415025
1.22	-0.422189	-0.413921
1.23	-0.418561	-0.413129
1.24	-0.415068	-0.412644
1.25	-0.411724	-0.412459
1.26	-0.40854	-0.412602
1.27	-0.405528	-0.413106
1.28	-0.402701	-0.413973
1.29	-0.400069	-0.415201
1.3	-0.397644	-0.416791
1.31	-0.395436	-0.418738
1.32	-0.393455	-0.42104
1.33	-0.391711	-0.42369
1.34	-0.390213	-0.426682
1.35	-0.38897	-0.430009
1.36	-0.387988	-0.433661
1.37	-0.387277	-0.437629
1.38	-0.386842	-0.441902
1.39	-0.386689	-0.446466
1.4	-0.386824	-0.45131
1.41	-0.387252	-0.456419
1.42	-0.387975	-0.461777
1.43	-0.388998	-0.467368
1.44	-0.390323	-0.473177
1.45	-0.391951	-0.479185
1.46	-0.393882	-0.485374
1.47	-0.396118	-0.491726
1.48	-0.398656	-0.49822
1.49	-0.401495	-0.504838
1.5	-0.404632	-0.511559
1.51	-0.408064	-0.518363
1.52	-0.411787	-0.525228
1.53	-0.415794	-0.532135
1.54	-0.420082	-0.539063
1.55	-0.424641	-0.54599
1.56	-0.429466	-0.552896
1.57	-0.434547	-0.559761
1.58	-0.439875	-0.566565
1.59	-0.44544	-0.573288
1.6	-0.451232	-0.57991
1.61	-0.457239	-0.586414
1.62	-0.463448	-0.592781
1.63	-0.469848	-0.598995
1.64	-0.476424	-0.605039
1.65	-0.483162	-0.610898
1.66	-0.490049	-0.616558
1.67	-0.497069	-0.622006
1.68	-0.504206	-0.627232
1.69	-0.511444	-0.632224
1.7	-0.518768	-0.636974
1.71	-0.526159	-0.641476
1.72	-0.533602	-0.645724
1.73	-0.541079	-0.649715
1.74	-0.548572	-0.653449
1.75	-0.556064	-0.656926
1.76	-0.563538	-0.66015
1.77	-0.570974	-0.663127
1.78	-0.578357	-0.665864
1.79	-0.585667	-0.668374
1.8	-0.592889	-0.670671
1.81	-0.600003	-0.672771
1.82	-0.606994	-0.674696
1.83	-0.613845	-0.676469
1.84	-0.62054	-0.678117
1.85	-0.627062	-0.679671
1.86	-0.633397	-0.681167
1.87	-0.63953	-0.682644
1.88	-0.645446	-0.684137
1.89	-0.651134	-0.685687
1.9	-0.65658	-0.687348
1.91	-0.661773	-0.689177
1.92	-0.666703	-0.691237
1.93	-0.67136	-0.693596
1.94	-0.675736	-0.696328
1.95	-0.679825	-0.699512
1.96	-0.68362	-0.703231
1.97	-0.687117	-0.707577
1.98	-0.690315	-0.712643
1.99	-0.693212	-0.718532
2	-0.695809	-0.725351
2.01	-0.698108	-0.733211
2.02	-0.700114	-0.74223
2.03	-0.701835	-0.752531
2.04	-0.703278	-0.764241
2.05	-0.704456	-0.777494
2.06	-0.705381	-0.792425
2.07	-0.706071	-0.809176
2.08	-0.706543	-0.82789
2.09	-0.706821	-0.848715
2.1	-0.706929	-0.871798
2.11	-0.706894	-0.897291
2.12	-0.706748	-0.925344
2.13	-0.706526	-0.956108
2.14	-0.706266	-0.989732
2.15	-0.706009	-1.02636
2.16	-0.705802	-1.06615
2.17	-0.705693	-1.10922
2.18	-0.705736	-1.15572
2.19	-0.70599	-1.20578
2.2	-0.706516	-1.2595
2.21	-0.707382	-1.31701
2.22	-0.708657	-1.3784
2.23	-0.710418	-1.44377
2.24	-0.712745	-1.5132
2.25	-0.715722	-1.58674
2.26	-0.71944	-1.66446
2.27	-0.723991	-1.74638
2.28	-0.729476	-1.83254
2.29	-0.735996	-1.92295
2.3	-0.74366	-2.0176
2.31	-0.752578	-2.11646
2.32	-0.762867	-2.21952
2.33	-0.774644	-2.32671
2.34	-0.788033	-2.43797
2.35	-0.803159	-2.55324
2.36	-0.820148	-2.67242
2.37	-0.839132	-2.79541
2.38	-0.86024	-2.9221
2.39	-0.883604	-3.05238
2.4	-0.909357	-3.18611
2.41	-0.937628	-3.32316
2.42	-0.968549	-3.46339
2.43	-1.00225	-3.60665
2.44	-1.03884	-3.75278
2.45	-1.07846	-3.90165
2.46	-1.12121	-4.05308
2.47	-1.16721	-4.20692
2.48	-1.21656	-4.36302
2.49	-1.26935	-4.52122
2.5	-1.32567	-4.68136
2.51	-1.3856	-4.8433
2.52	-1.4492	-5.0069
2.53	-1.51653	-5.17202
2.54	-1.58765	-5.33851
2.55	-1.66257	-5.50623
2.56	-1.74133	-5.67505
2.57	-1.82393	-5.84483
2.58	-1.91038	-6.01546
2.59	-2.00065	-6.1868
2.6	-2.09472	-6.35874
2.61	-2.19255	-6.53117
2.62	-2.29408	-6.70399
2.63	-2.39927	-6.87709
2.64	-2.50803	-7.05038
2.65	-2.62028	-7.22376
2.66	-2.73594	-7.39716
2.67	-2.85489	-7.57048
2.68	-2.97703	-7.74366
2.69	-3.10225	-7.91661
2.7	-3.23043	-8.08929
2.71	-3.36144	-8.26161
2.72	-3.49514	-8.43352
2.73	-3.63142	-8.60497
2.74	-3.77012	-8.7759
2.75	-3.91112	-8.94627
2.76	-4.05428	-9.11603
2.77	-4.19945	-9.28514
2.78	-4.34651	-9.45357
2.79	-4.49531	-9.62128
2.8	-4.64573	-9.78823
2.81	-4.79762	-9.95441
2.82	-4.95086	-10.1198
2.83	-5.10533	-10.2843
2.84	-5.2609	-10.448
2.85	-5.41745	-10.6108
2.86	-5.57486	-10.7728
2.87	-5.73304	-10.9338
2.88	-5.89186	-11.0939
2.89	-6.05122	-11.2531
2.9	-6.21104	-11.4114
2.91	-6.37121	-11.5688
2.92	-6.53164	-11.7252
2.93	-6.69226	-11.8806
2.94	-6.85297	-12.0351
2.95	-7.0137	-12.1886
2.96	-7.17439	-12.3412
2.97	-7.33495	-12.4929
2.98	-7.49534	-12.6436
2.99	-7.65548	-12.7934
3	-7.81532	-12.9422
3.01	-7.9748	-13.0901
3.02	-8.13388	-13.237
3.03	-8.29251	-13.3831
3.04	-8.45064	-13.5282
3.05	-8.60824	-13.6724
3.06	-8.76526	-13.8157
3.07	-8.92168	-13.9581
3.08	-9.07745	-14.0997
3.09	-9.23255	-14.2404
3.1	-9.38695	-14.3802
3.11	-9.54063	-14.5192
3.12	-9.69355	-14.6573
3.13	-9.8457	-14.7946
3.14	-9.99707	-14.9312
3.15	-10.1476	-15.067
3.16	-10.2973	-15.2021
3.17	-10.4462	-15.3365
3.18	-10.5943	-15.4701
3.19	-10.7414	-15.603
3.2	-10.8877	-15.7352
3.21	-11.0331	-15.8666
3.22	-11.1776	-15.9974
3.23	-11.3212	-16.1275
3.24	-11.4639	-16.2568
3.25	-11.6057	-16.3855
3.26	-11.7465	-16.5135
3.27	-11.8865	-16.6407
3.28	-12.0255	-16.7673
3.29	-12.1635	-16.8932
3.3	-12.3007	-17.0184
3.31	-12.4369	-17.1428
3.32	-12.5721	-17.2666
3.33	-12.7065	-17.3897
3.34	-12.8399	-17.512
3.35	-12.9723	-17.6336
3.36	-13.1038	-17.7545
3.37	-13.2344	-17.8747
3.38	-13.3641	-17.9941
3.39	-13.4928	-18.1128
3.4	-13.6206	-18.2307
3.41	-13.7475	-18.3479
3.42	-13.8735	-18.4643
3.43	-13.9985	-18.5799
3.44	-14.1227	-18.6948
3.45	-14.2459	-18.8088
3.46	-14.3682	-18.9221
3.47	-14.4897	-19.0345
3.48	-14.6102	-19.1462
3.49	-14.7298	-19.257
3.5	-14.8485	-19.367
3.51	-14.9664	-19.4761
3.52	-15.0834	-19.5845
3.53	-15.1995	-19.6919
3.54	-15.3147	-19.7986
3.55	-15.429	-19.9043
3.56	-15.5425	-20.0093
3.57	-15.6552	-20.1133
3.58	-15.767	-20.2165
3.59	-15.8779	-20.3189
3.6	-15.988	-20.4203
3.61	-16.0973	-20.521
3.62	-16.2057	-20.6207
3.63	-16.3133	-20.7196
3.64	-16.4201	-20.8177
3.65	-16.526	-20.9149
3.66	-16.6312	-21.0113
3.67	-16.7355	-21.1068
3.68	-16.8391	-21.2016
3.69	-16.9418	-21.2955
3.7	-17.0438	-21.3886
3.71	-17.1449	-21.4809
3.72	-17.2453	-21.5724
3.73	-17.3449	-21.6632
3.74	-17.4438	-21.7532
3.75	-17.5418	-21.8425
3.76	-17.6392	-21.9309
3.77	-17.7357	-22.0183
3.78	-17.8315	-22.1048
3.79	-17.9266	-22.1904
3.8	-18.0209	-22.275
3.81	-18.1144	-22.3587
3.82	-18.2073	-22.4415
3.83	-18.2994	-22.5234
3.84	-18.3907	-22.6045
3.85	-18.4814	-22.6847
3.86	-18.5713	-22.7641
3.87	-18.6606	-22.8427
3.88	-18.7491	-22.9206
3.89	-18.8369	-22.9977
3.9	-18.924	-23.074
3.91	-19.0104	-23.1497
3.92	-19.0962	-23.2247
3.93	-19.1812	-23.299
3.94	-19.2656	-23.3727
3.95	-19.3492	-23.4458
3.96	-19.4322	-23.5183
3.97	-19.5146	-23.5903
3.98	-19.5962	-23.6617
3.99	-19.6772	-23.7326
4	-19.7576	-23.803
4.01	-19.8373	-23.873
4.02	-19.9163	-23.9424
4.03	-19.9947	-24.0115
4.04	-20.0724	-24.0801
4.05	-20.1495	-24.1483
4.06	-20.226	-24.2161
4.07	-20.3018	-24.2835
4.08	-20.377	-24.3506
4.09	-20.4516	-24.4173
4.1	-20.5255	-24.4836
4.11	-20.5989	-24.5495
4.12	-20.6716	-24.6151
4.13	-20.7436	-24.6804
4.14	-20.8151	-24.7453
4.15	-20.886	-24.8098
4.16	-20.9562	-24.8739
4.17	-21.0259	-24.9377
4.18	-21.0949	-25.0011
4.19	-21.1634	-25.0641
4.2	-21.2313	-25.1266
4.21	-21.2985	-25.1888
4.22	-21.3652	-25.2504
4.23	-21.4313	-25.3116
4.24	-21.4968	-25.3723
4.25	-21.5617	-25.4325
4.26	-21.6261	-25.4921
4.27	-21.6898	-25.5511
4.28	-21.753	-25.6095
4.29	-21.8156	-25.6672
4.3	-21.8777	-25.7243
4.31	-21.9392	-25.7806
4.32	-22.0001	-25.8362
4.33	-22.0604	-25.891
4.34	-22.1202	-25.945
4.35	-22.1795	-25.9981
4.36	-22.2381	-26.0503
4.37	-22.2963	-26.1015
4.38	-22.3538	-26.1519
4.39	-22.4108	-26.2016
4.4	-22.4673	-26.2505
4.41	-22.5232	-26.2987
4.42	-22.5786	-26.3462
4.43	-22.6334	-26.3928
4.44	-22.6877	-26.4386
4.45	-22.7415	-26.4835
4.46	-22.7947	-26.5276
4.47	-22.8474	-26.5707
4.48	-22.8995	-26.613
4.49	-22.9511	-26.6542
4.5	-23.0022	-26.6945
4.51	-23.0528	-26.7338
4.52	-23.1028	-26.7721
4.53	-23.1523	-26.8093
4.54	-23.2012	-26.8455
4.55	-23.2497	-26.8805
4.56	-23.2976	-26.9145
4.57	-23.345	-26.9473
4.58	-23.3919	-26.9791
4.59	-23.4382	-27.0096
4.6	-23.4841	-27.039
4.61	-23.5294	-27.0672
4.62	-23.5742	-27.0942
4.63	-23.6185	-27.1201
4.64	-23.6623	-27.1447
4.65	-23.7055	-27.1682
4.66	-23.7483	-27.1904
4.67	-23.7905	-27.2115
4.68	-23.8322	-27.2314
4.69	-23.8735	-27.2501
4.7	-23.9142	-27.2676
4.71	-23.9544	-27.284
4.72	-23.9941	-27.2992
4.73	-24.0333	-27.3133
4.74	-24.072	-27.3262
4.75	-24.1102	-27.3381
4.76	-24.1479	-27.3489
4.77	-24.185	-27.3586
4.78	-24.2217	-27.3673
4.79	-24.2579	-27.375
4.8	-24.2936	-27.3818
4.81	-24.3288	-27.3875
4.82	-24.3634	-27.3924
4.83	-24.3976	-27.3964
4.84	-24.4313	-27.3995
4.85	-24.4645	-27.4018
4.86	-24.4972	-27.4033
4.87	-24.5294	-27.404
4.88	-24.5611	-27.404
4.89	-24.5923	-27.4033
4.9	-24.623	-27.4019
4.91	-24.6532	-27.3999
4.92	-24.6829	-27.3973
4.93	-24.7121	-27.3941
4.94	-24.7408	-27.3904
4.95	-24.769	-27.3862
4.96	-24.7968	-27.3815
4.97	-24.824	-27.3764
4.98	-24.8508	-27.3708
4.99	-24.877	-27.3648
5	-24.9028	-27.3585
